Time [s],Value,Parity Error,Framing Error
7.334756000000000,0x00,,
7.334842000000000,0x00,,
7.334930000000000,0x0C,,
7.335018000000000,0x00,,
7.335104000000000,0x2E,,
7.335192000000000,0xAA,,
7.335278000000000,0x14,,
7.335366000000000,0x01,,
7.335454000000000,0x26,,
7.335540000000000,0xAA,,
7.335628000000000,0x36,,
7.335714000000000,0xAA,,
7.335802000000000,0x54,,
7.335888000000000,0x00,,
7.335976000000000,0x65,,
7.336064000000000,0x00,,
7.345764000000000,0x00,,
7.345850000000000,0x00,,
7.345938000000000,0x81,,
7.346024000000000,0x5D,,
7.346112000000000,0x3B,,
7.346200000000000,0xAB,,
7.346286000000000,0x1C,,
7.346374000000000,0x00,,
7.346460000000000,0x44,,
7.346548000000000,0x00,,
7.346636000000000,0x4C,,
7.346722000000000,0x00,,
7.346810000000000,0x5C,,
7.346896000000000,0x00,,
7.346984000000000,0x65,,
7.347070000000000,0x00,,
7.356762000000000,0x00,,
7.356850000000000,0x00,,
7.356936000000000,0x0C,,
7.357024000000000,0x00,,
7.357112000000000,0x2E,,
7.357198000000000,0xAA,,
7.357286000000000,0x14,,
7.357372000000000,0x01,,
7.357460000000000,0x26,,
7.357548000000000,0xAA,,
7.357634000000000,0x36,,
7.357722000000000,0xAA,,
7.357808000000000,0x54,,
7.357896000000000,0x00,,
7.357984000000000,0x67,,
7.358070000000000,0x00,,
7.367762000000000,0x00,,
7.367850000000000,0x00,,
7.367936000000000,0x81,,
7.368024000000000,0x5C,,
7.368110000000000,0x3B,,
7.368198000000000,0xAB,,
7.368284000000000,0x1C,,
7.368372000000000,0x00,,
7.368460000000000,0x44,,
7.368546000000000,0x00,,
7.368634000000000,0x4C,,
7.368720000000000,0x00,,
7.368808000000000,0x5C,,
7.368896000000000,0x00,,
7.368982000000000,0x67,,
7.369070000000000,0x00,,
7.378762000000000,0x00,,
7.378848000000000,0x00,,
7.378936000000000,0x0C,,
7.379022000000000,0x00,,
7.379110000000000,0x2E,,
7.379198000000000,0xAA,,
7.379284000000000,0x14,,
7.379372000000000,0x01,,
7.379458000000000,0x26,,
7.379546000000000,0xAA,,
7.379632000000000,0x36,,
7.379720000000000,0xAA,,
7.379808000000000,0x54,,
7.379894000000000,0x00,,
7.379982000000000,0x63,,
7.380068000000000,0x00,,
7.389768000000000,0x00,,
7.389856000000000,0x00,,
7.389944000000000,0x81,,
7.390030000000000,0x5D,,
7.390118000000000,0x3B,,
7.390204000000000,0xAB,,
7.390292000000000,0x1C,,
7.390380000000000,0x00,,
7.390466000000000,0x44,,
7.390554000000000,0x00,,
7.390640000000000,0x4C,,
7.390728000000000,0x00,,
7.390816000000000,0x5C,,
7.390902000000000,0x00,,
7.390990000000000,0x61,,
7.391076000000000,0x00,,
7.400768000000000,0x00,,
7.400856000000000,0x00,,
7.400942000000000,0x0C,,
7.401030000000000,0x00,,
7.401116000000000,0x2E,,
7.401204000000000,0xAA,,
7.401290000000000,0x14,,
7.401378000000000,0x01,,
7.401466000000000,0x26,,
7.401552000000000,0xAA,,
7.401640000000000,0x36,,
7.401726000000000,0xAA,,
7.401814000000000,0x54,,
7.401902000000000,0x00,,
7.401988000000000,0x67,,
7.402076000000000,0x00,,
7.411768000000000,0x00,,
7.411854000000000,0x00,,
7.411942000000000,0x81,,
7.412028000000000,0x5E,,
7.412116000000000,0x3B,,
7.412204000000000,0xAB,,
7.412290000000000,0x1C,,
7.412378000000000,0x00,,
7.412464000000000,0x44,,
7.412552000000000,0x00,,
7.412638000000000,0x4C,,
7.412726000000000,0x00,,
7.412814000000000,0x5C,,
7.412900000000000,0x00,,
7.412988000000000,0x63,,
7.413074000000000,0x00,,
7.422766000000000,0x00,,
7.422854000000000,0x00,,
7.422940000000000,0x0C,,
7.423028000000000,0x00,,
7.423116000000000,0x2E,,
7.423202000000000,0xAA,,
7.423290000000000,0x14,,
7.423376000000000,0x01,,
7.423464000000000,0x26,,
7.423552000000000,0xAA,,
7.423638000000000,0x36,,
7.423726000000000,0xAA,,
7.423812000000000,0x54,,
7.423900000000000,0x00,,
7.423986000000000,0x63,,
7.424074000000000,0x00,,
7.433766000000000,0x00,,
7.433852000000000,0x00,,
7.433940000000000,0x81,,
7.434028000000000,0x5D,,
7.434114000000000,0x3B,,
7.434202000000000,0xAB,,
7.434288000000000,0x1C,,
7.434376000000000,0x00,,
7.434464000000000,0x44,,
7.434550000000000,0x00,,
7.434638000000000,0x4C,,
7.434724000000000,0x00,,
7.434812000000000,0x5C,,
7.434900000000000,0x00,,
7.434986000000000,0x65,,
7.435074000000000,0x00,,
7.444774000000000,0x00,,
7.444862000000000,0x00,,
7.444948000000000,0x0C,,
7.445036000000000,0x00,,
7.445122000000000,0x2E,,
7.445210000000000,0xAA,,
7.445296000000000,0x14,,
7.445384000000000,0x01,,
7.445472000000000,0x26,,
7.445558000000000,0xAA,,
7.445646000000000,0x36,,
7.445732000000000,0xAA,,
7.445820000000000,0x54,,
7.445908000000000,0x00,,
7.445994000000000,0x67,,
7.446082000000000,0x00,,
7.455774000000000,0x00,,
7.455860000000000,0x00,,
7.455948000000000,0x81,,
7.456034000000000,0x5E,,
7.456122000000000,0x3B,,
7.456210000000000,0xAB,,
7.456296000000000,0x1C,,
7.456384000000000,0x00,,
7.456470000000000,0x44,,
7.456558000000000,0x00,,
7.456644000000000,0x4C,,
7.456732000000000,0x00,,
7.456820000000000,0x5C,,
7.456906000000000,0x00,,
7.456994000000000,0x61,,
7.457080000000000,0x00,,
7.466772000000000,0x00,,
7.466860000000000,0x00,,
7.466946000000000,0x0C,,
7.467034000000000,0x00,,
7.467120000000000,0x2E,,
7.467208000000000,0xAA,,
7.467296000000000,0x14,,
7.467382000000000,0x01,,
7.467470000000000,0x26,,
7.467556000000000,0xAA,,
7.467644000000000,0x36,,
7.467732000000000,0xAA,,
7.467818000000000,0x54,,
7.467906000000000,0x00,,
7.467992000000000,0x63,,
7.468080000000000,0x00,,
7.477772000000000,0x00,,
7.477858000000000,0x00,,
7.477946000000000,0x81,,
7.478032000000000,0x5D,,
7.478120000000000,0x3B,,
7.478206000000000,0xAB,,
7.478294000000000,0x1C,,
7.478382000000000,0x00,,
7.478468000000000,0x44,,
7.478556000000000,0x00,,
7.478642000000000,0x4C,,
7.478730000000000,0x00,,
7.478818000000000,0x5C,,
7.478904000000000,0x00,,
7.478992000000000,0x63,,
7.479078000000000,0x00,,
7.488778000000000,0x00,,
7.488866000000000,0x00,,
7.488952000000000,0x0C,,
7.489040000000000,0x00,,
7.489128000000000,0x2E,,
7.489214000000000,0xAA,,
7.489302000000000,0x14,,
7.489388000000000,0x01,,
7.489476000000000,0x26,,
7.489564000000000,0xAA,,
7.489650000000000,0x36,,
7.489738000000000,0xAA,,
7.489824000000000,0x54,,
7.489912000000000,0x00,,
7.489998000000000,0x67,,
7.490086000000000,0x00,,
7.499778000000000,0x00,,
7.499864000000000,0x00,,
7.499952000000000,0x81,,
7.500038000000000,0x5D,,
7.500126000000000,0x3B,,
7.500214000000000,0xAB,,
7.500300000000000,0x1C,,
7.500388000000000,0x00,,
7.500474000000000,0x44,,
7.500562000000000,0x00,,
7.500648000000000,0x4C,,
7.500736000000000,0x00,,
7.500824000000000,0x5C,,
7.500910000000000,0x00,,
7.500998000000000,0x65,,
7.501084000000000,0x00,,
7.510776000000000,0x00,,
7.510864000000000,0x00,,
7.510950000000000,0x0C,,
7.511038000000000,0x00,,
7.511124000000000,0x2E,,
7.511212000000000,0xAA,,
7.511300000000000,0x14,,
7.511386000000000,0x01,,
7.511474000000000,0x26,,
7.511560000000000,0xAA,,
7.511648000000000,0x36,,
7.511736000000000,0xAA,,
7.511822000000000,0x54,,
7.511910000000000,0x00,,
7.511996000000000,0x63,,
7.512084000000000,0x00,,
7.521776000000000,0x00,,
7.521862000000000,0x00,,
7.521950000000000,0x81,,
7.522036000000000,0x5E,,
7.522124000000000,0x3B,,
7.522212000000000,0xAB,,
7.522298000000000,0x1C,,
7.522386000000000,0x00,,
7.522472000000000,0x44,,
7.522560000000000,0x00,,
7.522646000000000,0x4C,,
7.522734000000000,0x00,,
7.522822000000000,0x5C,,
7.522908000000000,0x00,,
7.522996000000000,0x61,,
7.523082000000000,0x00,,
7.532774000000000,0x00,,
7.532862000000000,0x00,,
7.532948000000000,0x0C,,
7.533036000000000,0x00,,
7.533122000000000,0x2E,,
7.533210000000000,0xAA,,
7.533298000000000,0x14,,
7.533384000000000,0x01,,
7.533472000000000,0x26,,
7.533558000000000,0xAA,,
7.533646000000000,0x36,,
7.533734000000000,0xAA,,
7.533820000000000,0x54,,
7.533908000000000,0x00,,
7.533994000000000,0x67,,
7.534082000000000,0x00,,
7.543782000000000,0x00,,
7.543868000000000,0x00,,
7.543956000000000,0x81,,
7.544044000000000,0x5D,,
7.544130000000000,0x3B,,
7.544218000000000,0xAB,,
7.544304000000000,0x1C,,
7.544392000000000,0x00,,
7.544480000000000,0x44,,
7.544566000000000,0x00,,
7.544654000000000,0x4C,,
7.544740000000000,0x00,,
7.544828000000000,0x5C,,
7.544916000000000,0x00,,
7.545002000000000,0x63,,
7.545090000000000,0x00,,
7.554780000000000,0x00,,
7.554868000000000,0x00,,
7.554956000000000,0x0C,,
7.555042000000000,0x00,,
7.555130000000000,0x2E,,
7.555216000000000,0xAA,,
7.555304000000000,0x14,,
7.555392000000000,0x01,,
7.555478000000000,0x26,,
7.555566000000000,0xAA,,
7.555652000000000,0x36,,
7.555740000000000,0xAA,,
7.555828000000000,0x54,,
7.555914000000000,0x00,,
7.556002000000000,0x61,,
7.556088000000000,0x00,,
7.565780000000000,0x00,,
7.565868000000000,0x00,,
7.565954000000000,0x81,,
7.566042000000000,0x5D,,
7.566128000000000,0x3B,,
7.566216000000000,0xAB,,
7.566304000000000,0x1C,,
7.566390000000000,0x00,,
7.566478000000000,0x44,,
7.566564000000000,0x00,,
7.566652000000000,0x4C,,
7.566738000000000,0x00,,
7.566826000000000,0x5C,,
7.566914000000000,0x00,,
7.567000000000000,0x65,,
7.567088000000000,0x00,,
7.576788000000000,0x00,,
7.576876000000000,0x00,,
7.576962000000000,0x0C,,
7.577050000000000,0x00,,
7.577136000000000,0x2E,,
7.577224000000000,0xAA,,
7.577312000000000,0x14,,
7.577398000000000,0x01,,
7.577486000000000,0x26,,
7.577572000000000,0xAA,,
7.577660000000000,0x36,,
7.577746000000000,0xAA,,
7.577834000000000,0x54,,
7.577922000000000,0x00,,
7.578008000000000,0x63,,
7.578096000000000,0x00,,
7.587778000000000,0x00,,
7.587866000000000,0x00,,
7.587952000000000,0x81,,
7.588040000000000,0x5D,,
7.588128000000000,0x3B,,
7.588214000000000,0xAB,,
7.588302000000000,0x1C,,
7.588388000000000,0x00,,
7.588476000000000,0x44,,
7.588564000000000,0x00,,
7.588650000000000,0x4C,,
7.588738000000000,0x00,,
7.588824000000000,0x5C,,
7.588912000000000,0x00,,
7.588998000000000,0x61,,
7.589086000000000,0x00,,
7.598778000000000,0x00,,
7.598864000000000,0x00,,
7.598952000000000,0x0C,,
7.599040000000000,0x00,,
7.599126000000000,0x2E,,
7.599214000000000,0xAA,,
7.599300000000000,0x14,,
7.599388000000000,0x01,,
7.599474000000000,0x26,,
7.599562000000000,0xAA,,
7.599650000000000,0x36,,
7.599736000000000,0xAA,,
7.599824000000000,0x54,,
7.599910000000000,0x00,,
7.599998000000000,0x67,,
7.600086000000000,0x00,,
7.609786000000000,0x00,,
7.609872000000000,0x00,,
7.609960000000000,0x81,,
7.610046000000000,0x5C,,
7.610134000000000,0x3B,,
7.610222000000000,0xAB,,
7.610308000000000,0x1C,,
7.610396000000000,0x00,,
7.610482000000000,0x44,,
7.610570000000000,0x00,,
7.610658000000000,0x4C,,
7.610744000000000,0x00,,
7.610832000000000,0x5C,,
7.610918000000000,0x00,,
7.611006000000000,0x63,,
7.611092000000000,0x00,,
7.620784000000000,0x00,,
7.620872000000000,0x00,,
7.620958000000000,0x0C,,
7.621046000000000,0x00,,
7.621134000000000,0x2E,,
7.621220000000000,0xAA,,
7.621308000000000,0x14,,
7.621394000000000,0x01,,
7.621482000000000,0x26,,
7.621570000000000,0xAA,,
7.621656000000000,0x36,,
7.621744000000000,0xAA,,
7.621830000000000,0x54,,
7.621918000000000,0x00,,
7.622006000000000,0x63,,
7.622092000000000,0x00,,
7.631784000000000,0x00,,
7.631870000000000,0x00,,
7.631958000000000,0x81,,
7.632046000000000,0x5C,,
7.632132000000000,0x3B,,
7.632220000000000,0xAB,,
7.632306000000000,0x1C,,
7.632394000000000,0x00,,
7.632482000000000,0x44,,
7.632568000000000,0x00,,
7.632656000000000,0x4C,,
7.632742000000000,0x00,,
7.632830000000000,0x5C,,
7.632918000000000,0x00,,
7.633004000000000,0x65,,
7.633092000000000,0x00,,
7.642782000000000,0x00,,
7.642870000000000,0x00,,
7.642958000000000,0x0C,,
7.643044000000000,0x00,,
7.643132000000000,0x2E,,
7.643218000000000,0xAA,,
7.643306000000000,0x14,,
7.643392000000000,0x01,,
7.643480000000000,0x26,,
7.643568000000000,0xAA,,
7.643654000000000,0x36,,
7.643742000000000,0xAA,,
7.643828000000000,0x54,,
7.643916000000000,0x00,,
7.644004000000000,0x65,,
7.644090000000000,0x00,,
7.653790000000000,0x00,,
7.653878000000000,0x00,,
7.653964000000000,0x81,,
7.654052000000000,0x5E,,
7.654140000000000,0x3B,,
7.654226000000000,0xAB,,
7.654314000000000,0x1C,,
7.654400000000000,0x00,,
7.654488000000000,0x44,,
7.654576000000000,0x00,,
7.654662000000000,0x4C,,
7.654750000000000,0x00,,
7.654836000000000,0x5C,,
7.654924000000000,0x00,,
7.655010000000000,0x61,,
7.655098000000000,0x00,,
7.664790000000000,0x00,,
7.664876000000000,0x00,,
7.664964000000000,0x0C,,
7.665050000000000,0x00,,
7.665138000000000,0x2E,,
7.665226000000000,0xAA,,
7.665312000000000,0x14,,
7.665400000000000,0x01,,
7.665486000000000,0x26,,
7.665574000000000,0xAA,,
7.665662000000000,0x36,,
7.665748000000000,0xAA,,
7.665836000000000,0x54,,
7.665922000000000,0x00,,
7.666010000000000,0x67,,
7.666098000000000,0x00,,
7.675788000000000,0x00,,
7.675876000000000,0x00,,
7.675962000000000,0x81,,
7.676050000000000,0x5C,,
7.676138000000000,0x3B,,
7.676224000000000,0xAB,,
7.676312000000000,0x1C,,
7.676398000000000,0x00,,
7.676486000000000,0x44,,
7.676572000000000,0x00,,
7.676660000000000,0x4C,,
7.676748000000000,0x00,,
7.676834000000000,0x5C,,
7.676922000000000,0x00,,
7.677008000000000,0x63,,
7.677096000000000,0x00,,
7.686788000000000,0x00,,
7.686874000000000,0x00,,
7.686962000000000,0x0C,,
7.687048000000000,0x00,,
7.687136000000000,0x2E,,
7.687224000000000,0xAA,,
7.687310000000000,0x14,,
7.687398000000000,0x01,,
7.687484000000000,0x26,,
7.687572000000000,0xAA,,
7.687658000000000,0x36,,
7.687746000000000,0xAA,,
7.687834000000000,0x54,,
7.687920000000000,0x00,,
7.688008000000000,0x63,,
7.688094000000000,0x00,,
7.697786000000000,0x00,,
7.697874000000000,0x00,,
7.697960000000000,0x81,,
7.698048000000000,0x5D,,
7.698134000000000,0x3B,,
7.698222000000000,0xAB,,
7.698310000000000,0x1C,,
7.698396000000000,0x00,,
7.698484000000000,0x44,,
7.698570000000000,0x00,,
7.698658000000000,0x4C,,
7.698744000000000,0x00,,
7.698832000000000,0x5C,,
7.698920000000000,0x00,,
7.699006000000000,0x65,,
7.699094000000000,0x00,,
7.708794000000000,0x00,,
7.708880000000000,0x00,,
7.708968000000000,0x0C,,
7.709056000000000,0x00,,
7.709142000000000,0x2E,,
7.709230000000000,0xAA,,
7.709316000000000,0x14,,
7.709404000000000,0x01,,
7.709492000000000,0x26,,
7.709578000000000,0xAA,,
7.709666000000000,0x36,,
7.709752000000000,0xAA,,
7.709840000000000,0x54,,
7.709928000000000,0x00,,
7.710014000000000,0x67,,
7.710102000000000,0x00,,
7.719792000000000,0x00,,
7.719880000000000,0x00,,
7.719968000000000,0x81,,
7.720054000000000,0x5C,,
7.720142000000000,0x3B,,
7.720228000000000,0xAB,,
7.720316000000000,0x1C,,
7.720404000000000,0x00,,
7.720490000000000,0x44,,
7.720578000000000,0x00,,
7.720664000000000,0x4C,,
7.720752000000000,0x00,,
7.720838000000000,0x5C,,
7.720926000000000,0x00,,
7.721014000000000,0x61,,
7.721100000000000,0x00,,
7.730792000000000,0x00,,
7.730880000000000,0x00,,
7.730966000000000,0x0C,,
7.731054000000000,0x00,,
7.731140000000000,0x2E,,
7.731228000000000,0xAA,,
7.731314000000000,0x14,,
7.731402000000000,0x01,,
7.731490000000000,0x26,,
7.731576000000000,0xAA,,
7.731664000000000,0x36,,
7.731750000000000,0xAA,,
7.731838000000000,0x54,,
7.731926000000000,0x00,,
7.732012000000000,0x63,,
7.732100000000000,0x00,,
7.741800000000000,0x00,,
7.741886000000000,0x00,,
7.741974000000000,0x81,,
7.742062000000000,0x5E,,
7.742148000000000,0x3B,,
7.742236000000000,0xAB,,
7.742322000000000,0x1C,,
7.742410000000000,0x00,,
7.742498000000000,0x44,,
7.742584000000000,0x00,,
7.742672000000000,0x4C,,
7.742758000000000,0x00,,
7.742846000000000,0x5C,,
7.742934000000000,0x00,,
7.743020000000000,0x63,,
7.743108000000000,0x00,,
7.752798000000000,0x00,,
7.752886000000000,0x00,,
7.752972000000000,0x0C,,
7.753060000000000,0x00,,
7.753148000000000,0x2E,,
7.753234000000000,0xAA,,
7.753322000000000,0x14,,
7.753408000000000,0x01,,
7.753496000000000,0x26,,
7.753584000000000,0xAA,,
7.753670000000000,0x36,,
7.753758000000000,0xAA,,
7.753844000000000,0x54,,
7.753932000000000,0x00,,
7.754018000000000,0x67,,
7.754106000000000,0x00,,
7.763798000000000,0x00,,
7.763884000000000,0x00,,
7.763972000000000,0x81,,
7.764058000000000,0x5E,,
7.764146000000000,0x3B,,
7.764232000000000,0xAB,,
7.764320000000000,0x1C,,
7.764408000000000,0x00,,
7.764494000000000,0x44,,
7.764582000000000,0x00,,
7.764668000000000,0x4C,,
7.764756000000000,0x00,,
7.764844000000000,0x5C,,
7.764930000000000,0x00,,
7.765018000000000,0x65,,
7.765104000000000,0x00,,
7.774804000000000,0x00,,
7.774892000000000,0x00,,
7.774978000000000,0x0C,,
7.775066000000000,0x00,,
7.775154000000000,0x2E,,
7.775240000000000,0xAA,,
7.775328000000000,0x14,,
7.775414000000000,0x01,,
7.775502000000000,0x26,,
7.775588000000000,0xAA,,
7.775676000000000,0x36,,
7.775764000000000,0xAA,,
7.775850000000000,0x54,,
7.775938000000000,0x00,,
7.776024000000000,0x63,,
7.776112000000000,0x00,,
7.785794000000000,0x00,,
7.785882000000000,0x00,,
7.785968000000000,0x81,,
7.786056000000000,0x5D,,
7.786142000000000,0x3B,,
7.786230000000000,0xAB,,
7.786318000000000,0x1C,,
7.786404000000000,0x00,,
7.786492000000000,0x44,,
7.786578000000000,0x00,,
7.786666000000000,0x4C,,
7.786754000000000,0x00,,
7.786840000000000,0x5C,,
7.786928000000000,0x00,,
7.787014000000000,0x61,,
7.787102000000000,0x00,,
7.796802000000000,0x00,,
7.796888000000000,0x00,,
7.796976000000000,0x0C,,
7.797064000000000,0x00,,
7.797150000000000,0x2E,,
7.797238000000000,0xAA,,
7.797324000000000,0x14,,
7.797412000000000,0x01,,
7.797500000000000,0x26,,
7.797586000000000,0xAA,,
7.797674000000000,0x36,,
7.797760000000000,0xAA,,
7.797848000000000,0x54,,
7.797934000000000,0x00,,
7.798022000000000,0x67,,
7.798110000000000,0x00,,
7.807800000000000,0x00,,
7.807888000000000,0x00,,
7.807974000000000,0x81,,
7.808062000000000,0x5E,,
7.808150000000000,0x3B,,
7.808236000000000,0xAB,,
7.808324000000000,0x1C,,
7.808410000000000,0x00,,
7.808498000000000,0x44,,
7.808584000000000,0x00,,
7.808672000000000,0x4C,,
7.808760000000000,0x00,,
7.808846000000000,0x5C,,
7.808934000000000,0x00,,
7.809020000000000,0x63,,
7.809108000000000,0x00,,
7.818808000000000,0x00,,
7.818894000000000,0x00,,
7.818982000000000,0x0C,,
7.819070000000000,0x00,,
7.819156000000000,0x2E,,
7.819244000000000,0xAA,,
7.819330000000000,0x14,,
7.819418000000000,0x01,,
7.819506000000000,0x26,,
7.819592000000000,0xAA,,
7.819680000000000,0x36,,
7.819766000000000,0xAA,,
7.819854000000000,0x54,,
7.819942000000000,0x00,,
7.820028000000000,0x63,,
7.820116000000000,0x00,,
7.829798000000000,0x00,,
7.829884000000000,0x00,,
7.829972000000000,0x81,,
7.830060000000000,0x5E,,
7.830146000000000,0x3B,,
7.830234000000000,0xAB,,
7.830320000000000,0x1C,,
7.830408000000000,0x00,,
7.830496000000000,0x44,,
7.830582000000000,0x00,,
7.830670000000000,0x4C,,
7.830756000000000,0x00,,
7.830844000000000,0x5C,,
7.830930000000000,0x00,,
7.831018000000000,0x65,,
7.831106000000000,0x00,,
7.840804000000000,0x00,,
7.840892000000000,0x00,,
7.840980000000000,0x0C,,
7.841066000000000,0x00,,
7.841154000000000,0x2E,,
7.841240000000000,0xAA,,
7.841328000000000,0x14,,
7.841416000000000,0x01,,
7.841502000000000,0x26,,
7.841590000000000,0xAA,,
7.841676000000000,0x36,,
7.841764000000000,0xAA,,
7.841850000000000,0x54,,
7.841938000000000,0x00,,
7.842026000000000,0x67,,
7.842112000000000,0x00,,
7.851804000000000,0x00,,
7.851892000000000,0x00,,
7.851978000000000,0x81,,
7.852066000000000,0x5E,,
7.852152000000000,0x3B,,
7.852240000000000,0xAB,,
7.852326000000000,0x1C,,
7.852414000000000,0x00,,
7.852502000000000,0x44,,
7.852588000000000,0x00,,
7.852676000000000,0x4C,,
7.852762000000000,0x00,,
7.852850000000000,0x5C,,
7.852938000000000,0x00,,
7.853024000000000,0x67,,
7.853112000000000,0x00,,
7.862812000000000,0x00,,
7.862898000000000,0x00,,
7.862986000000000,0x0C,,
7.863074000000000,0x00,,
7.863160000000000,0x2E,,
7.863248000000000,0xAA,,
7.863334000000000,0x14,,
7.863422000000000,0x01,,
7.863508000000000,0x26,,
7.863596000000000,0xAA,,
7.863684000000000,0x36,,
7.863770000000000,0xAA,,
7.863858000000000,0x54,,
7.863944000000000,0x00,,
7.864032000000000,0x61,,
7.864120000000000,0x00,,
7.873810000000000,0x00,,
7.873898000000000,0x00,,
7.873984000000000,0x81,,
7.874072000000000,0x5E,,
7.874160000000000,0x3B,,
7.874246000000000,0xAB,,
7.874334000000000,0x1C,,
7.874420000000000,0x00,,
7.874508000000000,0x44,,
7.874596000000000,0x00,,
7.874682000000000,0x4C,,
7.874770000000000,0x00,,
7.874856000000000,0x5C,,
7.874944000000000,0x00,,
