Time [s],Value,Parity Error,Framing Error
12.263604000000001,0x00,,
12.263690000000000,0x00,,
12.263778000000000,0x0B,,
12.263864000000000,0xFF,,
12.263952000000000,0x2E,,
12.264040000000000,0xAA,,
12.264125999999999,0x14,,
12.264214000000001,0x06,,
12.264300000000000,0x1C,,
12.264388000000000,0x04,,
12.264474000000000,0x33,,
12.264562000000000,0xC4,,
12.264650000000000,0xFF,,
12.264735999999999,0xFF,,
12.264824000000001,0xFF,,
12.264910000000000,0xFF,,
12.274566000000000,0x00,,
12.274654000000000,0x00,,
12.274742000000000,0xA6,,
12.274827999999999,0xAA,,
12.274915999999999,0x01,,
12.275002000000001,0x5E,,
12.275090000000001,0x3B,,
12.275178000000000,0xFF,,
12.275264000000000,0xFF,,
12.275352000000000,0xFF,,
12.275437999999999,0xFF,,
12.275525999999999,0xFF,,
12.275613999999999,0xFF,,
12.275700000000001,0xFF,,
12.275788000000000,0xFF,,
12.275874000000000,0xFF,,
12.285591999999999,0x00,,
12.285679999999999,0x00,,
12.285766000000001,0x0B,,
12.285854000000000,0xFF,,
12.285940000000000,0x2E,,
12.286028000000000,0xAA,,
12.286116000000000,0x14,,
12.286201999999999,0x04,,
12.286289999999999,0x1C,,
12.286376000000001,0x04,,
12.286464000000000,0x33,,
12.286550000000000,0xC5,,
12.286638000000000,0xFF,,
12.286726000000000,0xFF,,
12.286811999999999,0xFF,,
12.286899999999999,0xFF,,
12.296545999999999,0x00,,
12.296633999999999,0x00,,
12.296722000000001,0xA6,,
12.296808000000000,0xAA,,
12.296896000000000,0x01,,
12.296982000000000,0x5E,,
12.297070000000000,0x3B,,
12.297158000000000,0xFF,,
12.297243999999999,0xFF,,
12.297332000000001,0xFF,,
12.297418000000000,0xFF,,
12.297506000000000,0xFF,,
12.297594000000000,0xFF,,
12.297680000000000,0xFF,,
12.297768000000000,0xFF,,
12.297853999999999,0xFF,,
12.307563999999999,0x00,,
12.307650000000001,0x00,,
12.307738000000001,0x0B,,
12.307824000000000,0xFF,,
12.307912000000000,0x2E,,
12.307998000000000,0xAA,,
12.308085999999999,0x14,,
12.308173999999999,0x06,,
12.308260000000001,0x1C,,
12.308348000000001,0x04,,
12.308434000000000,0x33,,
12.308522000000000,0xC5,,
12.308610000000000,0xFF,,
12.308695999999999,0xFF,,
12.308783999999999,0xFF,,
12.308870000000001,0xFF,,
12.318536000000000,0x00,,
12.318622000000000,0x00,,
12.318709999999999,0xA6,,
12.318796000000001,0xAA,,
12.318884000000001,0x01,,
12.318972000000000,0x5E,,
12.319058000000000,0x3B,,
12.319146000000000,0xFF,,
12.319232000000000,0xFF,,
12.319319999999999,0xFF,,
12.319407999999999,0xFF,,
12.319494000000001,0xFF,,
12.319582000000000,0xFF,,
12.319668000000000,0xFF,,
12.319756000000000,0xFF,,
12.319844000000000,0xFF,,
12.329552000000000,0x00,,
12.329637999999999,0x00,,
12.329726000000001,0x0B,,
12.329812000000000,0xFF,,
12.329900000000000,0x2E,,
12.329988000000000,0xAA,,
12.330074000000000,0x14,,
12.330162000000000,0x06,,
12.330247999999999,0x1C,,
12.330336000000001,0x03,,
12.330424000000001,0x33,,
12.330510000000000,0xC4,,
12.330598000000000,0xFF,,
12.330684000000000,0xFF,,
12.330772000000000,0xFF,,
12.330859999999999,0xFF,,
12.340514000000001,0x00,,
12.340602000000001,0x00,,
12.340690000000000,0xA6,,
12.340776000000000,0xAA,,
12.340864000000000,0x01,,
12.340949999999999,0x5E,,
12.341037999999999,0x3B,,
12.341124000000001,0xFF,,
12.341212000000001,0xFF,,
12.341300000000000,0xFF,,
12.341386000000000,0xFF,,
12.341474000000000,0xFF,,
12.341559999999999,0xFF,,
12.341647999999999,0xFF,,
12.341735999999999,0xFF,,
12.341822000000001,0xFF,,
12.351530000000000,0x00,,
12.351618000000000,0x00,,
12.351706000000000,0x0B,,
12.351792000000000,0xFF,,
12.351880000000000,0x2E,,
12.351965999999999,0xAA,,
12.352054000000001,0x14,,
12.352140000000000,0x06,,
12.352228000000000,0x1C,,
12.352316000000000,0x04,,
12.352402000000000,0x33,,
12.352490000000000,0xC4,,
12.352575999999999,0xFF,,
12.352664000000001,0xFF,,
12.352752000000001,0xFF,,
12.352838000000000,0xFF,,
12.362494000000000,0x00,,
12.362582000000000,0x00,,
12.362667999999999,0xA6,,
12.362755999999999,0xAA,,
12.362842000000001,0x01,,
12.362930000000000,0x5E,,
12.363018000000000,0x3B,,
12.363104000000000,0xFF,,
12.363192000000000,0xFF,,
12.363277999999999,0xFF,,
12.363365999999999,0xFF,,
12.363452000000001,0xFF,,
12.363540000000000,0xFF,,
12.363628000000000,0xFF,,
12.363714000000000,0xFF,,
12.363802000000000,0xFF,,
12.373510000000000,0x00,,
12.373595999999999,0x00,,
12.373684000000001,0x0B,,
12.373772000000001,0xFF,,
12.373858000000000,0x2E,,
12.373946000000000,0xAA,,
12.374032000000000,0x14,,
12.374120000000000,0x06,,
12.374207999999999,0x1C,,
12.374294000000001,0x03,,
12.374382000000001,0x33,,
12.374468000000000,0xC4,,
12.374556000000000,0xFF,,
12.374644000000000,0xFF,,
12.374730000000000,0xFF,,
12.374817999999999,0xFF,,
12.384474000000001,0x00,,
12.384560000000000,0x00,,
12.384648000000000,0xA6,,
12.384734000000000,0xAA,,
12.384822000000000,0x01,,
12.384907999999999,0x5E,,
12.384995999999999,0x3B,,
12.385084000000001,0xFF,,
12.385170000000000,0xFF,,
12.385258000000000,0xFF,,
12.385344000000000,0xFF,,
12.385432000000000,0xFF,,
12.385520000000000,0xFF,,
12.385605999999999,0xFF,,
12.385694000000001,0xFF,,
12.385780000000000,0xFF,,
12.395488000000000,0x00,,
12.395576000000000,0x00,,
12.395664000000000,0x0B,,
12.395750000000000,0xFF,,
12.395837999999999,0x2E,,
12.395924000000001,0xAA,,
12.396012000000001,0x14,,
12.396100000000001,0x06,,
12.396186000000000,0x1C,,
12.396274000000000,0x03,,
12.396360000000000,0x33,,
12.396447999999999,0xC5,,
12.396535999999999,0xFF,,
12.396622000000001,0xFF,,
12.396710000000001,0xFF,,
12.396796000000000,0xFF,,
12.406461999999999,0x00,,
12.406548000000001,0x00,,
12.406636000000001,0xA6,,
12.406724000000001,0xAA,,
12.406810000000000,0x01,,
12.406898000000000,0x5E,,
12.406984000000000,0x3B,,
12.407071999999999,0xFF,,
12.407158000000001,0xFF,,
12.407246000000001,0xFF,,
12.407334000000001,0xFF,,
12.407420000000000,0xFF,,
12.407508000000000,0xFF,,
12.407594000000000,0xFF,,
12.407681999999999,0xFF,,
12.407769999999999,0xFF,,
12.417477999999999,0x00,,
12.417566000000001,0x00,,
12.417652000000000,0x0B,,
12.417740000000000,0xFF,,
12.417826000000000,0x2E,,
12.417914000000000,0xAA,,
12.418002000000000,0x14,,
12.418087999999999,0x06,,
12.418176000000001,0x1C,,
12.418262000000000,0x03,,
12.418350000000000,0x33,,
12.418436000000000,0xC6,,
12.418524000000000,0xFF,,
12.418612000000000,0xFF,,
12.418697999999999,0xFF,,
12.418786000000001,0xFF,,
12.428442000000000,0x00,,
12.428530000000000,0x00,,
12.428616000000000,0xA6,,
12.428704000000000,0xAA,,
12.428789999999999,0x01,,
12.428877999999999,0x5E,,
12.428966000000001,0x3B,,
12.429052000000000,0xFF,,
12.429140000000000,0xFF,,
12.429226000000000,0xFF,,
12.429314000000000,0xFF,,
12.429402000000000,0xFF,,
12.429487999999999,0xFF,,
12.429576000000001,0xFF,,
12.429662000000000,0xFF,,
12.429750000000000,0xFF,,
12.439458000000000,0x00,,
12.439546000000000,0x00,,
12.439632000000000,0x0B,,
12.439719999999999,0xFE,,
12.439806000000001,0x2E,,
12.439894000000001,0xAA,,
12.439982000000001,0x14,,
12.440068000000000,0x06,,
12.440156000000000,0x1C,,
12.440242000000000,0x03,,
12.440329999999999,0x33,,
12.440417999999999,0xC6,,
12.440504000000001,0xFF,,
12.440592000000001,0xFF,,
12.440678000000000,0xFF,,
12.440766000000000,0xFF,,
12.450414000000000,0x00,,
12.450500000000000,0x00,,
12.450588000000000,0xA6,,
12.450673999999999,0xAA,,
12.450761999999999,0x01,,
12.450850000000001,0x5E,,
12.450936000000000,0x3B,,
12.451024000000000,0xFF,,
12.451110000000000,0xFF,,
12.451198000000000,0xFF,,
12.451283999999999,0xFF,,
12.451371999999999,0xFF,,
12.451460000000001,0xFF,,
12.451546000000000,0xFF,,
12.451634000000000,0xFF,,
12.451720000000000,0xFF,,
12.461430000000000,0x00,,
12.461516000000000,0x00,,
12.461603999999999,0x0B,,
12.461690000000001,0xFF,,
12.461778000000001,0x2E,,
12.461866000000001,0xAA,,
12.461952000000000,0x14,,
12.462040000000000,0x04,,
12.462126000000000,0x1C,,
12.462213999999999,0x03,,
12.462301999999999,0x33,,
12.462388000000001,0xC5,,
12.462476000000001,0xFF,,
12.462562000000000,0xFF,,
12.462650000000000,0xFF,,
12.462736000000000,0xFF,,
12.472402000000001,0x00,,
12.472488000000000,0x00,,
12.472576000000000,0xA6,,
12.472664000000000,0xAA,,
12.472750000000000,0x01,,
12.472837999999999,0x5E,,
12.472924000000001,0x3B,,
12.473012000000001,0xFF,,
12.473100000000001,0xFF,,
12.473186000000000,0xFF,,
12.473274000000000,0xFF,,
12.473360000000000,0xFF,,
12.473447999999999,0xFF,,
12.473535999999999,0xFF,,
12.473622000000001,0xFF,,
12.473710000000001,0xFF,,
12.483426000000000,0x00,,
12.483514000000000,0x00,,
12.483599999999999,0x0B,,
12.483688000000001,0xFE,,
12.483774000000000,0x2E,,
12.483862000000000,0xAA,,
12.483950000000000,0x14,,
12.484036000000000,0x06,,
12.484124000000000,0x1C,,
12.484209999999999,0x04,,
12.484298000000001,0x33,,
12.484386000000001,0xC6,,
12.484472000000000,0xFF,,
12.484560000000000,0xFF,,
12.484646000000000,0xFF,,
12.484734000000000,0xFF,,
12.494380000000000,0x00,,
12.494467999999999,0x00,,
12.494555999999999,0xA6,,
12.494642000000001,0xAA,,
12.494730000000001,0x01,,
12.494816000000000,0x5E,,
12.494904000000000,0x3B,,
12.494992000000000,0xFF,,
12.495077999999999,0xFF,,
12.495165999999999,0xFF,,
12.495252000000001,0xFF,,
12.495340000000001,0xFF,,
12.495426000000000,0xFF,,
12.495514000000000,0xFF,,
12.495602000000000,0xFF,,
12.495687999999999,0xFF,,
12.505395999999999,0x00,,
12.505483999999999,0x00,,
12.505570000000001,0x0B,,
12.505658000000000,0xFF,,
12.505746000000000,0x2E,,
12.505832000000000,0xAA,,
12.505920000000000,0x14,,
12.506005999999999,0x06,,
12.506093999999999,0x1C,,
12.506182000000001,0x04,,
12.506268000000000,0x33,,
12.506356000000000,0xC6,,
12.506442000000000,0xFF,,
12.506530000000000,0xFF,,
12.506618000000000,0xFF,,
12.506703999999999,0xFF,,
12.516360000000001,0x00,,
12.516448000000000,0x00,,
12.516534000000000,0xA6,,
12.516622000000000,0xAA,,
12.516708000000000,0x01,,
12.516795999999999,0x5E,,
12.516883999999999,0x3B,,
12.516970000000001,0xFF,,
12.517058000000000,0xFF,,
12.517144000000000,0xFF,,
12.517232000000000,0xFF,,
12.517318000000000,0xFF,,
12.517405999999999,0xFF,,
12.517493999999999,0xFF,,
12.517580000000001,0xFF,,
12.517668000000000,0xFF,,
12.527376000000000,0x00,,
12.527462000000000,0x00,,
12.527550000000000,0x0B,,
12.527635999999999,0xFF,,
12.527723999999999,0x2E,,
12.527812000000001,0xAA,,
12.527898000000000,0x14,,
12.527986000000000,0x06,,
12.528072000000000,0x1C,,
12.528160000000000,0x03,,
12.528248000000000,0x33,,
12.528333999999999,0xC5,,
12.528422000000001,0xFF,,
12.528508000000000,0xFF,,
12.528596000000000,0xFF,,
12.528682000000000,0xFF,,
12.538347999999999,0x00,,
12.538434000000001,0x00,,
12.538522000000000,0xA6,,
12.538608000000000,0xAA,,
12.538696000000000,0x01,,
12.538784000000000,0x5E,,
12.538869999999999,0x3B,,
12.538957999999999,0xFF,,
12.539044000000001,0xFF,,
12.539132000000000,0xFF,,
12.539220000000000,0xFF,,
12.539306000000000,0xFF,,
12.539394000000000,0xFF,,
12.539479999999999,0xFF,,
12.539567999999999,0xFF,,
12.539656000000001,0xFF,,
12.549364000000001,0x00,,
12.549450000000000,0x00,,
12.549538000000000,0x0B,,
12.549624000000000,0xFF,,
12.549712000000000,0x2E,,
12.549797999999999,0xAA,,
12.549886000000001,0x14,,
12.549974000000001,0x06,,
12.550060000000000,0x1C,,
12.550148000000000,0x03,,
12.550234000000000,0x33,,
12.550322000000000,0xC5,,
12.550409999999999,0xFF,,
12.550496000000001,0xFF,,
12.550584000000001,0xFF,,
12.550670000000000,0xFF,,
12.560326000000000,0x00,,
12.560414000000000,0x00,,
12.560499999999999,0xA6,,
12.560587999999999,0xAA,,
12.560676000000001,0x01,,
12.560762000000000,0x5E,,
12.560850000000000,0x3B,,
12.560936000000000,0xFF,,
12.561024000000000,0xFF,,
12.561112000000000,0xFF,,
12.561197999999999,0xFF,,
12.561286000000001,0xFF,,
12.561372000000000,0xFF,,
12.561460000000000,0xFF,,
12.561548000000000,0xFF,,
12.561634000000000,0xFF,,
12.571342000000000,0x00,,
12.571429999999999,0x00,,
12.571516000000001,0x0B,,
12.571604000000001,0xFF,,
12.571692000000001,0x2E,,
12.571778000000000,0xAA,,
12.571866000000000,0x14,,
12.571952000000000,0x06,,
12.572039999999999,0x1C,,
12.572126000000001,0x03,,
12.572214000000001,0x33,,
12.572302000000001,0xC5,,
12.572388000000000,0xFF,,
12.572476000000000,0xFF,,
12.572562000000000,0xFF,,
12.572649999999999,0xFF,,
12.582306000000001,0x00,,
12.582392000000000,0x00,,
12.582480000000000,0xA6,,
12.582568000000000,0xAA,,
12.582654000000000,0x01,,
12.582742000000000,0x5E,,
12.582827999999999,0x3B,,
12.582916000000001,0xFF,,
12.583002000000000,0xFF,,
12.583090000000000,0xFF,,
12.583178000000000,0xFF,,
12.583264000000000,0xFF,,
12.583352000000000,0xFF,,
12.583437999999999,0xFF,,
12.583526000000001,0xFF,,
12.583614000000001,0xFF,,
12.593322000000001,0x00,,
12.593408000000000,0x00,,
12.593496000000000,0x0B,,
12.593582000000000,0xFF,,
12.593669999999999,0x2E,,
12.593757999999999,0xAA,,
12.593844000000001,0x14,,
12.593932000000001,0x06,,
12.594018000000000,0x1C,,
12.594106000000000,0x04,,
12.594192000000000,0x33,,
12.594279999999999,0xC5,,
12.594367999999999,0xFF,,
12.594454000000001,0xFF,,
12.594542000000001,0xFF,,
12.594628000000000,0xFF,,
12.604284000000000,0x00,,
12.604372000000000,0x00,,
12.604460000000000,0xA6,,
12.604545999999999,0xAA,,
12.604634000000001,0x01,,
12.604720000000000,0x5E,,
12.604808000000000,0x3B,,
12.604894000000000,0xFF,,
12.604982000000000,0xFF,,
12.605070000000000,0xFF,,
12.605155999999999,0xFF,,
12.605244000000001,0xFF,,
12.605330000000000,0xFF,,
12.605418000000000,0xFF,,
12.605506000000000,0xFF,,
12.605592000000000,0xFF,,
12.615300000000000,0x00,,
12.615387999999999,0x00,,
12.615474000000001,0x0B,,
12.615562000000001,0xFF,,
12.615650000000000,0x2E,,
12.615736000000000,0xAA,,
12.615824000000000,0x14,,
12.615910000000000,0x04,,
12.615997999999999,0x1C,,
12.616085999999999,0x03,,
12.616172000000001,0x33,,
12.616260000000000,0xC6,,
12.616346000000000,0xFF,,
12.616434000000000,0xFF,,
12.616520000000000,0xFF,,
12.616607999999999,0xFF,,
12.626272000000000,0x00,,
12.626360000000000,0x00,,
12.626446000000000,0xA6,,
12.626533999999999,0xAA,,
12.626621999999999,0x01,,
12.626708000000001,0x5E,,
12.626796000000001,0x3B,,
12.626882000000000,0xFF,,
12.626970000000000,0xFF,,
12.627058000000000,0xFF,,
12.627143999999999,0xFF,,
12.627231999999999,0xFF,,
12.627318000000001,0xFF,,
12.627406000000001,0xFF,,
12.627492000000000,0xFF,,
12.627580000000000,0xFF,,
12.637288000000000,0x00,,
12.637376000000000,0x00,,
12.637461999999999,0x0B,,
12.637549999999999,0xFE,,
12.637636000000001,0x2E,,
12.637724000000000,0xAA,,
12.637812000000000,0x14,,
12.637898000000000,0x04,,
12.637986000000000,0x1C,,
12.638071999999999,0x03,,
12.638159999999999,0x33,,
12.638248000000001,0xC5,,
12.638334000000000,0xFF,,
12.638422000000000,0xFF,,
12.638508000000000,0xFF,,
12.638596000000000,0xFF,,
12.648251999999999,0x00,,
12.648338000000001,0x00,,
12.648426000000001,0xA6,,
12.648514000000000,0xAA,,
12.648600000000000,0x01,,
12.648688000000000,0x5E,,
12.648774000000000,0x3B,,
12.648861999999999,0xFF,,
12.648949999999999,0xFF,,
12.649036000000001,0xFF,,
12.649124000000000,0xFF,,
12.649210000000000,0xFF,,
12.649298000000000,0xFF,,
12.649384000000000,0xFF,,
12.649471999999999,0xFF,,
12.649559999999999,0xFF,,
12.659276000000000,0x00,,
12.659364000000000,0x00,,
12.659450000000000,0x0B,,
12.659538000000000,0xFF,,
12.659625999999999,0x2E,,
12.659712000000001,0xAA,,
12.659800000000001,0x14,,
12.659886000000000,0x06,,
12.659974000000000,0x1C,,
12.660062000000000,0x03,,
12.660148000000000,0x33,,
12.660235999999999,0xC5,,
12.660322000000001,0xFF,,
12.660410000000001,0xFF,,
12.660496000000000,0xFF,,
12.660584000000000,0xFF,,
12.670232000000000,0x00,,
12.670318000000000,0x00,,
12.670406000000000,0xA6,,
12.670491999999999,0xAA,,
12.670579999999999,0x01,,
12.670667999999999,0x5E,,
12.670754000000001,0x3B,,
12.670842000000000,0xFF,,
12.670928000000000,0xFF,,
12.671016000000000,0xFF,,
12.671104000000000,0xFF,,
12.671189999999999,0xFF,,
12.671277999999999,0xFF,,
12.671364000000001,0xFF,,
12.671452000000000,0xFF,,
12.671538000000000,0xFF,,
12.681248000000000,0x00,,
12.681334000000000,0x00,,
12.681422000000000,0x0B,,
12.681507999999999,0xFF,,
12.681596000000001,0x2E,,
12.681684000000001,0xAA,,
12.681770000000000,0x14,,
12.681858000000000,0x06,,
12.681944000000000,0x1C,,
12.682032000000000,0x04,,
12.682117999999999,0x33,,
12.682206000000001,0xC5,,
12.682294000000001,0xFF,,
12.682380000000000,0xFF,,
12.682468000000000,0xFF,,
12.682554000000000,0xFF,,
12.692209999999999,0x00,,
12.692297999999999,0x00,,
12.692384000000001,0xA6,,
12.692472000000000,0xAA,,
12.692560000000000,0x01,,
12.692646000000000,0x5E,,
12.692734000000000,0x3B,,
12.692819999999999,0xFF,,
12.692907999999999,0xFF,,
12.692996000000001,0xFF,,
12.693082000000000,0xFF,,
12.693170000000000,0xFF,,
12.693256000000000,0xFF,,
12.693344000000000,0xFF,,
12.693432000000000,0xFF,,
12.693517999999999,0xFF,,
12.703226000000001,0x00,,
12.703314000000001,0x00,,
12.703400000000000,0x0B,,
12.703488000000000,0xFF,,
12.703574000000000,0x2E,,
12.703662000000000,0xAA,,
12.703749999999999,0x14,,
12.703836000000001,0x04,,
12.703924000000001,0x1C,,
12.704010000000000,0x04,,
12.704098000000000,0x33,,
12.704186000000000,0xC5,,
12.704272000000000,0xFF,,
12.704359999999999,0xFF,,
12.704446000000001,0xFF,,
12.704534000000001,0xFF,,
12.714190000000000,0x00,,
12.714276000000000,0x00,,
12.714364000000000,0xA6,,
12.714452000000000,0xAA,,
12.714537999999999,0x01,,
12.714626000000001,0x5E,,
12.714712000000000,0x3B,,
12.714800000000000,0xFF,,
12.714886000000000,0xFF,,
12.714974000000000,0xFF,,
12.715062000000000,0xFF,,
12.715147999999999,0xFF,,
12.715236000000001,0xFF,,
12.715322000000000,0xFF,,
12.715410000000000,0xFF,,
12.715498000000000,0xFF,,
12.725206000000000,0x00,,
12.725292000000000,0x00,,
12.725379999999999,0x0B,,
12.725466000000001,0xFF,,
12.725554000000001,0x2E,,
12.725642000000001,0xAA,,
12.725728000000000,0x14,,
12.725816000000000,0x04,,
12.725902000000000,0x1C,,
12.725989999999999,0x03,,
12.726077999999999,0x33,,
12.726164000000001,0xC5,,
12.726252000000001,0xFF,,
12.726338000000000,0xFF,,
12.726426000000000,0xFF,,
12.726514000000000,0xFF,,
12.736178000000001,0x00,,
12.736264000000000,0x00,,
12.736352000000000,0xA6,,
12.736440000000000,0xAA,,
12.736526000000000,0x01,,
12.736613999999999,0x5E,,
12.736700000000001,0x3B,,
12.736788000000001,0xFF,,
12.736874000000000,0xFF,,
12.736962000000000,0xFF,,
12.737050000000000,0xFF,,
12.737136000000000,0xFF,,
12.737223999999999,0xFF,,
12.737310000000001,0xFF,,
12.737398000000001,0xFF,,
12.737486000000001,0xFF,,
12.747194000000000,0x00,,
12.747280000000000,0x00,,
12.747368000000000,0x0B,,
12.747456000000000,0xFF,,
12.747541999999999,0x2E,,
12.747629999999999,0xAA,,
12.747716000000000,0x14,,
12.747804000000000,0x04,,
12.747890000000000,0x1C,,
12.747978000000000,0x03,,
12.748066000000000,0x33,,
12.748151999999999,0xC5,,
12.748239999999999,0xFF,,
12.748326000000000,0xFF,,
12.748414000000000,0xFF,,
12.748502000000000,0xFF,,
12.758158000000000,0x00,,
12.758243999999999,0x00,,
12.758331999999999,0xA6,,
12.758418000000001,0xAA,,
12.758506000000001,0x01,,
12.758592000000000,0x5E,,
12.758680000000000,0x3B,,
12.758768000000000,0xFF,,
12.758853999999999,0xFF,,
12.758941999999999,0xFF,,
12.759028000000001,0xFF,,
12.759116000000001,0xFF,,
12.759204000000000,0xFF,,
12.759290000000000,0xFF,,
12.759378000000000,0xFF,,
12.759463999999999,0xFF,,
12.769174000000000,0x00,,
12.769259999999999,0x00,,
12.769348000000001,0x0B,,
12.769434000000000,0xFF,,
12.769522000000000,0x2E,,
12.769610000000000,0xAA,,
12.769696000000000,0x14,,
12.769784000000000,0x06,,
12.769869999999999,0x1C,,
12.769958000000001,0x03,,
12.770044000000000,0x33,,
12.770132000000000,0xC4,,
12.770220000000000,0xFF,,
12.770306000000000,0xFF,,
12.770394000000000,0xFF,,
12.770479999999999,0xFF,,
12.780136000000001,0x00,,
12.780224000000000,0x00,,
12.780312000000000,0xA6,,
12.780398000000000,0xAA,,
12.780486000000000,0x01,,
12.780571999999999,0x5E,,
12.780659999999999,0x3B,,
12.780748000000001,0xFF,,
12.780834000000000,0xFF,,
12.780922000000000,0xFF,,
12.781008000000000,0xFF,,
12.781096000000000,0xFF,,
12.781181999999999,0xFF,,
12.781269999999999,0xFF,,
12.781358000000001,0xFF,,
